
T3AA8 000:633 SEGGER J-Link V4.90 Log File (0001ms, 0286ms total)
T3AA8 000:633 DLL Compiled: Jul 28 2014 10:35:20 (0001ms, 0286ms total)
T3AA8 000:633 Logging started @ 2024-04-05 00:08 (0001ms, 0286ms total)
T3AA8 000:634 JLINK_SetWarnOutHandler(...) (0001ms, 0287ms total)
T3AA8 000:635 JLINK_OpenEx(...)
Firmware: J-Link V9 compiled Apr 21 2017 11:08:06
Hardware: V9.20
S/N: 29999997
Feature(s): GDB, RDI, FlashBP, FlashDL, JFlash  returns O.K. (0306ms, 0593ms total)
T3AA8 000:941 JLINK_SetErrorOutHandler(...) (0000ms, 0593ms total)
T3AA8 000:941 JLINK_ExecCommand("ProjectFile = "D:\STM32(CubeMX)\Projects\2024_LJX\Projects\New_Sentinel_24\Master(GS)__\MDK-ARM\JLinkSettings.ini"", ...)Device "UNSPECIFIED" selected (0 KB flash, 0 KB RAM).  returns 0x00 (0001ms, 0594ms total)
T3AA8 000:942 JLINK_ExecCommand("Device = STM32F407VETx", ...)Device "UNSPECIFIED" selected (0 KB flash, 0 KB RAM).  returns 0x00 (0001ms, 0595ms total)
T3AA8 000:943 JLINK_ExecCommand("DisableConnectionTimeout", ...)  returns 0x01 (0000ms, 0595ms total)
T3AA8 000:943 JLINK_GetHardwareVersion()  returns 0x16760 (0000ms, 0595ms total)
T3AA8 000:943 JLINK_GetDLLVersion()  returns 49000 (0000ms, 0595ms total)
T3AA8 000:943 JLINK_GetFirmwareString(...) (0000ms, 0595ms total)
T3AA8 000:943 JLINK_GetDLLVersion()  returns 49000 (0000ms, 0595ms total)
T3AA8 000:943 JLINK_GetCompileDateTime() (0000ms, 0595ms total)
T3AA8 000:943 JLINK_GetFirmwareString(...) (0000ms, 0595ms total)
T3AA8 000:943 JLINK_GetHardwareVersion()  returns 0x16760 (0000ms, 0595ms total)
T3AA8 000:943 JLINK_TIF_Select(JLINKARM_TIF_SWD)  returns 0x00 (0001ms, 0596ms total)
T3AA8 000:944 JLINK_SetSpeed(5000) (0000ms, 0596ms total)
T3AA8 000:944 JLINK_GetId() >0x108 TIF>Found SWD-DP with ID 0x2BA01477 >0x0D TIF> >0x21 TIF> >0x0D TIF> >0x28 TIF> >0x0D TIF> >0x28 TIF> >0x0D TIF> >0x21 TIF> >0x0D TIF> >0x28 TIF> >0x0D TIF> >0x21 TIF> >0x0D TIF> >0x21 TIF> >0x0D TIF> >0x21 TIF> >0x0D TIF> >0x21 TIF> >0x0D TIF> >0x28 TIF> >0x0D TIF> >0x28 TIF> >0x0D TIF> >0x21 TIF> >0x0D TIF> >0x28 TIF> >0x0D TIF> >0x28 TIF> >0x0D TIF> >0x28 TIF> >0x0D TIF> >0x21 TIF> >0x0D TIF> >0x21 TIF> >0x0D TIF> >0x28 TIF> >0x0D TIF> >0x21 TIF> >0x0D TIF>
 >0x21 TIF>Found Cortex-M4 r0p1, Little endian. -- CPU_WriteMem(4 bytes @ 0xE0002000) -- CPU_ReadMem(4 bytes @ 0xE000EDF0) -- CPU_ReadMem(4 bytes @ 0xE0002000)FPUnit: 6 code (BP) slots and 2 literal slots -- CPU_ReadMem(4 bytes @ 0xE000EDFC) -- CPU_ReadMem(4 bytes @ 0xE0001000) -- CPU_WriteMem(4 bytes @ 0xE0001000) -- CPU_ReadMem(4 bytes @ 0xE00FF010)TPIU fitted. -- CPU_ReadMem(4 bytes @ 0xE00FF014)ETM fitted. -- CPU_ReadMem(4 bytes @ 0xE00FF018) >0x0D TIF> >0x21 TIF>  returns 0x2BA01477
 (0013ms, 0609ms total)
T3AA8 000:957 JLINK_GetDLLVersion()  returns 49000 (0000ms, 0609ms total)
T3AA8 000:957 JLINK_CORE_GetFound()  returns 0xE0000FF (0000ms, 0609ms total)
T3AA8 000:957 JLINK_ReadMem (0xE00FF000, 0x0020 Bytes, ...) -- CPU is running -- CPU_ReadMem(32 bytes @ 0xE00FF000) - Data: 03 F0 F0 FF 03 20 F0 FF 03 30 F0 FF 03 10 F0 FF ...  returns 0x00 (0000ms, 0609ms total)
T3AA8 000:957 JLINK_ReadMem (0xE000EFF0, 0x0010 Bytes, ...) -- CPU is running -- CPU_ReadMem(16 bytes @ 0xE000EFF0) - Data: 0D 00 00 00 E0 00 00 00 05 00 00 00 B1 00 00 00  returns 0x00 (0001ms, 0610ms total)
T3AA8 000:958 JLINK_ReadMem (0xE000EFD0, 0x0020 Bytes, ...) -- CPU is running -- CPU_ReadMem(32 bytes @ 0xE000EFD0) - Data: 04 00 00 00 00 00 00 00 00 00 00 00 00 00 00 00 ...  returns 0x00 (0000ms, 0610ms total)
T3AA8 000:958 JLINK_ReadMem (0xE0001FF0, 0x0010 Bytes, ...) -- CPU is running -- CPU_ReadMem(16 bytes @ 0xE0001FF0) - Data: 0D 00 00 00 E0 00 00 00 05 00 00 00 B1 00 00 00  returns 0x00 (0001ms, 0611ms total)
T3AA8 000:959 JLINK_ReadMem (0xE0001FD0, 0x0020 Bytes, ...) -- CPU is running -- CPU_ReadMem(32 bytes @ 0xE0001FD0) - Data: 04 00 00 00 00 00 00 00 00 00 00 00 00 00 00 00 ...  returns 0x00 (0000ms, 0611ms total)
T3AA8 000:959 JLINK_ReadMem (0xE0002FF0, 0x0010 Bytes, ...) -- CPU is running -- CPU_ReadMem(16 bytes @ 0xE0002FF0) - Data: 0D 00 00 00 E0 00 00 00 05 00 00 00 B1 00 00 00  returns 0x00 (0000ms, 0611ms total)
T3AA8 000:959 JLINK_ReadMem (0xE0002FD0, 0x0020 Bytes, ...) -- CPU is running -- CPU_ReadMem(32 bytes @ 0xE0002FD0) - Data: 04 00 00 00 00 00 00 00 00 00 00 00 00 00 00 00 ...  returns 0x00 (0001ms, 0612ms total)
T3AA8 000:960 JLINK_ReadMem (0xE0000FF0, 0x0010 Bytes, ...) -- CPU is running -- CPU_ReadMem(16 bytes @ 0xE0000FF0) - Data: 0D 00 00 00 E0 00 00 00 05 00 00 00 B1 00 00 00  returns 0x00 (0000ms, 0612ms total)
T3AA8 000:960 JLINK_ReadMem (0xE0000FD0, 0x0020 Bytes, ...) -- CPU is running -- CPU_ReadMem(32 bytes @ 0xE0000FD0) - Data: 04 00 00 00 00 00 00 00 00 00 00 00 00 00 00 00 ...  returns 0x00 (0001ms, 0613ms total)
T3AA8 000:961 JLINK_ReadMem (0xE0040FF0, 0x0010 Bytes, ...) -- CPU is running -- CPU_ReadMem(16 bytes @ 0xE0040FF0) - Data: 0D 00 00 00 90 00 00 00 05 00 00 00 B1 00 00 00  returns 0x00 (0000ms, 0613ms total)
T3AA8 000:961 JLINK_ReadMem (0xE0040FD0, 0x0020 Bytes, ...) -- CPU is running -- CPU_ReadMem(32 bytes @ 0xE0040FD0) - Data: 04 00 00 00 00 00 00 00 00 00 00 00 00 00 00 00 ...  returns 0x00 (0000ms, 0613ms total)
T3AA8 000:961 JLINK_ReadMem (0xE0041FF0, 0x0010 Bytes, ...) -- CPU is running -- CPU_ReadMem(16 bytes @ 0xE0041FF0) - Data: 0D 00 00 00 90 00 00 00 05 00 00 00 B1 00 00 00  returns 0x00 (0001ms, 0614ms total)
T3AA8 000:962 JLINK_ReadMem (0xE0041FD0, 0x0020 Bytes, ...) -- CPU is running -- CPU_ReadMem(32 bytes @ 0xE0041FD0) - Data: 04 00 00 00 00 00 00 00 00 00 00 00 00 00 00 00 ...  returns 0x00 (0000ms, 0614ms total)
T3AA8 000:962 JLINK_ReadMemU32(0xE000EF40, 0x0001 Items, ...) -- CPU is running -- CPU_ReadMem(4 bytes @ 0xE000EF40) - Data: 21 00 11 10  returns 0x01 (0000ms, 0614ms total)
T3AA8 000:962 JLINK_ReadMemU32(0xE000EF44, 0x0001 Items, ...) -- CPU is running -- CPU_ReadMem(4 bytes @ 0xE000EF44) - Data: 11 00 00 11  returns 0x01 (0000ms, 0614ms total)
T3AA8 000:962 JLINK_ReadMemU32(0xE000ED00, 0x0001 Items, ...) -- CPU is running -- CPU_ReadMem(4 bytes @ 0xE000ED00) - Data: 41 C2 0F 41  returns 0x01 (0001ms, 0615ms total)
T3AA8 000:963 JLINK_SetResetType(JLINKARM_RESET_TYPE_NORMAL)  returns JLINKARM_RESET_TYPE_NORMAL (0000ms, 0615ms total)
T3AA8 000:963 JLINK_Reset() -- CPU is running -- CPU_WriteMem(4 bytes @ 0xE000EDF0) -- CPU is running -- CPU_WriteMem(4 bytes @ 0xE000EDFC) >0x35 TIF> -- CPU is running -- CPU_WriteMem(4 bytes @ 0xE000ED0C) -- CPU is running -- CPU_ReadMem(4 bytes @ 0xE000EDF0) -- CPU is running -- CPU_ReadMem(4 bytes @ 0xE000EDF0) -- CPU is running -- CPU_WriteMem(4 bytes @ 0xE000EDF0) -- CPU is running -- CPU_WriteMem(4 bytes @ 0xE000EDFC) -- CPU is running -- CPU_ReadMem(4 bytes @ 0xE000EDF0)
 -- CPU_WriteMem(4 bytes @ 0xE0002000) -- CPU_ReadMem(4 bytes @ 0xE000EDFC) -- CPU_ReadMem(4 bytes @ 0xE0001000) (0014ms, 0629ms total)
T3AA8 000:978 JLINK_ReadReg(R15 (PC))  returns 0x0800019C (0000ms, 0630ms total)
T3AA8 000:978 JLINK_ReadReg(XPSR)  returns 0x01000000 (0000ms, 0630ms total)
T3AA8 000:978 JLINK_Halt()  returns 0x00 (0000ms, 0630ms total)
T3AA8 000:978 JLINK_IsHalted()  returns TRUE (0000ms, 0630ms total)
T3AA8 000:978 JLINK_ReadMemU32(0xE000EDF0, 0x0001 Items, ...) -- CPU_ReadMem(4 bytes @ 0xE000EDF0) - Data: 03 00 03 00  returns 0x01 (0000ms, 0630ms total)
T3AA8 000:978 JLINK_WriteU32(0xE000EDF0, 0xA05F0003) -- CPU_WriteMem(4 bytes @ 0xE000EDF0)  returns 0x00 (0000ms, 0630ms total)
T3AA8 000:978 JLINK_WriteU32(0xE000EDFC, 0x01000000) -- CPU_WriteMem(4 bytes @ 0xE000EDFC)  returns 0x00 (0001ms, 0631ms total)
T3AA8 000:979 JLINK_GetHWStatus(...)  returns 0x00 (0000ms, 0631ms total)
T3AA8 000:979 JLINK_GetNumBPUnits(Type = 0xFFFFFF00)  returns 0x06 (0000ms, 0631ms total)
T3AA8 000:979 JLINK_GetNumBPUnits(Type = 0xF0)  returns 0x2000 (0000ms, 0631ms total)
T3AA8 000:979 JLINK_GetNumWPUnits()  returns 0x04 (0000ms, 0631ms total)
T3AA8 000:979 JLINK_GetSpeed()  returns 0xFA0 (0000ms, 0631ms total)
T3AA8 000:979 JLINK_ReadMemU32(0xE000E004, 0x0001 Items, ...) -- CPU_ReadMem(4 bytes @ 0xE000E004) - Data: 02 00 00 00  returns 0x01 (0000ms, 0631ms total)
T3AA8 000:979 JLINK_ReadMemU32(0xE000E004, 0x0001 Items, ...) -- CPU_ReadMem(4 bytes @ 0xE000E004) - Data: 02 00 00 00  returns 0x01 (0000ms, 0631ms total)
T3AA8 000:979 JLINK_WriteMem(0xE0001000, 0x001C Bytes, ...) - Data: 01 00 00 00 00 00 00 00 00 00 00 00 00 00 00 00 ... -- CPU_WriteMem(28 bytes @ 0xE0001000)  returns 0x1C (0001ms, 0632ms total)
T3AA8 000:980 JLINK_ReadMem (0xE0001000, 0x001C Bytes, ...) -- CPU_ReadMem(28 bytes @ 0xE0001000) - Data: 01 00 00 40 00 00 00 00 00 00 00 00 00 00 00 00 ...  returns 0x00 (0000ms, 0632ms total)
T3AA8 000:980 JLINK_ReadReg(R15 (PC))  returns 0x0800019C (0000ms, 0632ms total)
T3AA8 000:980 JLINK_ReadReg(XPSR)  returns 0x01000000 (0000ms, 0632ms total)
T3AA8 000:986 JLINK_ReadMem (0xE0001004, 0x0004 Bytes, ...) -- CPU_ReadMem(4 bytes @ 0xE0001004) - Data: 00 00 00 00  returns 0x00 (0000ms, 0632ms total)
T3AA8 001:127 JLINK_SetResetType(JLINKARM_RESET_TYPE_NORMAL)  returns JLINKARM_RESET_TYPE_NORMAL (0000ms, 0632ms total)
T3AA8 001:127 JLINK_Reset() -- CPU_WriteMem(4 bytes @ 0xE000EDF0) -- CPU_WriteMem(4 bytes @ 0xE000EDFC) >0x35 TIF> -- CPU_WriteMem(4 bytes @ 0xE000ED0C) -- CPU_ReadMem(4 bytes @ 0xE000EDF0) -- CPU_ReadMem(4 bytes @ 0xE000EDF0) -- CPU_WriteMem(4 bytes @ 0xE000EDF0) -- CPU_WriteMem(4 bytes @ 0xE000EDFC) -- CPU is running -- CPU_ReadMem(4 bytes @ 0xE000EDF0) -- CPU_WriteMem(4 bytes @ 0xE0002000) -- CPU_ReadMem(4 bytes @ 0xE000EDFC) -- CPU_ReadMem(4 bytes @ 0xE0001000) (0017ms, 0649ms total)
T3AA8 001:144 JLINK_ReadReg(R15 (PC))  returns 0x0800019C (0000ms, 0649ms total)
T3AA8 001:144 JLINK_ReadReg(XPSR)  returns 0x01000000 (0000ms, 0649ms total)
T3AA8 001:158 JLINK_ReadMem (0x08000188, 0x003C Bytes, ...) -- CPU_ReadMem(60 bytes @ 0x08000188) - Data: DF F8 0C D0 00 F0 9E FB 00 48 00 47 91 C5 00 08 ...  returns 0x00 (0001ms, 0650ms total)
T3AA8 009:838 JLINK_ReadMem (0x20005B14, 0x0004 Bytes, ...) -- CPU_ReadMem(4 bytes @ 0x20005B14) - Data: C4 5B 00 20  returns 0x00 (0000ms, 0650ms total)
T3AA8 009:838 JLINK_ReadMem (0x20005BD9, 0x0004 Bytes, ...) -- CPU_ReadMem(4 bytes @ 0x20005BD9) - Data: 00 80 75 3E  returns 0x00 (0001ms, 0651ms total)
T3AA8 009:855 JLINK_ReadMem (0x20005B10, 0x0004 Bytes, ...) -- CPU_ReadMem(4 bytes @ 0x20005B10) - Data: 88 5A 00 20  returns 0x00 (0000ms, 0651ms total)
T3AA8 009:855 JLINK_ReadMem (0x20005A8D, 0x0002 Bytes, ...) -- CPU_ReadMem(2 bytes @ 0x20005A8D) - Data: 00 00  returns 0x00 (0001ms, 0652ms total)
T3AA8 009:872 JLINK_ReadMem (0x2000191C, 0x0002 Bytes, ...) -- CPU_ReadMem(2 bytes @ 0x2000191C) - Data: 00 00  returns 0x00 (0000ms, 0652ms total)
T3AA8 009:980 JLINK_ReadMem (0x20000B36, 0x0002 Bytes, ...) -- CPU_ReadMem(2 bytes @ 0x20000B36) - Data: 00 00  returns 0x00 (0000ms, 0652ms total)
T3AA8 010:060 JLINK_ReadMem (0x2000191A, 0x0002 Bytes, ...) -- CPU_ReadMem(2 bytes @ 0x2000191A) - Data: 00 00  returns 0x00 (0001ms, 0653ms total)
TF83C 010:318 JLINK_SetBPEx(Addr = 0x0800C590, Type = 0xFFFFFFF2)  returns 0x00000001 (0000ms, 0653ms total)
TF83C 010:318 JLINK_SetBPEx(Addr = 0x08000CC4, Type = 0xFFFFFFF2)  returns 0x00000002 (0000ms, 0653ms total)
TF83C 010:318 JLINK_Go() -- CPU_WriteMem(4 bytes @ 0xE0002000) -- CPU_WriteMem(4 bytes @ 0xE0002008) -- CPU_WriteMem(4 bytes @ 0xE0002000) -- CPU_WriteMem(4 bytes @ 0xE000200C) -- CPU_WriteMem(4 bytes @ 0xE0002010) -- CPU_WriteMem(4 bytes @ 0xE0002014) -- CPU_WriteMem(4 bytes @ 0xE0002018) -- CPU_WriteMem(4 bytes @ 0xE000201C) -- CPU_WriteMem(4 bytes @ 0xE0001004) (0003ms, 0656ms total)
TF83C 010:423 JLINK_IsHalted()  returns TRUE (0001ms, 0657ms total)
TF83C 010:424 JLINK_Halt()  returns 0x00 (0001ms, 0657ms total)
TF83C 010:425 JLINK_IsHalted()  returns TRUE (0000ms, 0657ms total)
TF83C 010:425 JLINK_IsHalted()  returns TRUE (0000ms, 0657ms total)
TF83C 010:425 JLINK_IsHalted()  returns TRUE (0000ms, 0657ms total)
TF83C 010:425 JLINK_ReadReg(R15 (PC))  returns 0x0800C590 (0000ms, 0657ms total)
TF83C 010:425 JLINK_ReadReg(XPSR)  returns 0x61000000 (0000ms, 0657ms total)
TF83C 010:425 JLINK_ClrBPEx(BPHandle = 0x00000001)  returns 0x00 (0000ms, 0657ms total)
TF83C 010:425 JLINK_ClrBPEx(BPHandle = 0x00000002)  returns 0x00 (0000ms, 0657ms total)
TF83C 010:425 JLINK_ReadMemU32(0xE000ED30, 0x0001 Items, ...) -- CPU_ReadMem(4 bytes @ 0xE000ED30) - Data: 02 00 00 00  returns 0x01 (0000ms, 0657ms total)
TF83C 010:425 JLINK_ReadMemU32(0xE0001028, 0x0001 Items, ...) -- CPU_ReadMem(4 bytes @ 0xE0001028) - Data: 00 00 00 00  returns 0x01 (0001ms, 0658ms total)
TF83C 010:426 JLINK_ReadMemU32(0xE0001038, 0x0001 Items, ...) -- CPU_ReadMem(4 bytes @ 0xE0001038) - Data: 00 02 00 00  returns 0x01 (0000ms, 0658ms total)
TF83C 010:426 JLINK_ReadMemU32(0xE0001048, 0x0001 Items, ...) -- CPU_ReadMem(4 bytes @ 0xE0001048) - Data: 00 00 00 00  returns 0x01 (0000ms, 0658ms total)
TF83C 010:426 JLINK_ReadMemU32(0xE0001058, 0x0001 Items, ...) -- CPU_ReadMem(4 bytes @ 0xE0001058) - Data: 00 00 00 00  returns 0x01 (0000ms, 0658ms total)
TF83C 010:426 JLINK_ReadReg(R0)  returns 0x0800C591 (0000ms, 0658ms total)
TF83C 010:426 JLINK_ReadReg(R1)  returns 0x20006338 (0000ms, 0658ms total)
TF83C 010:426 JLINK_ReadReg(R2)  returns 0x00000000 (0000ms, 0658ms total)
TF83C 010:426 JLINK_ReadReg(R3)  returns 0x08011AA9 (0001ms, 0659ms total)
TF83C 010:427 JLINK_ReadReg(R4)  returns 0x080140A8 (0000ms, 0659ms total)
TF83C 010:427 JLINK_ReadReg(R5)  returns 0x080140A8 (0000ms, 0659ms total)
TF83C 010:427 JLINK_ReadReg(R6)  returns 0x00000000 (0000ms, 0659ms total)
TF83C 010:427 JLINK_ReadReg(R7)  returns 0x00000000 (0000ms, 0659ms total)
TF83C 010:427 JLINK_ReadReg(R8)  returns 0x00000000 (0000ms, 0659ms total)
TF83C 010:427 JLINK_ReadReg(R9)  returns 0x00000000 (0000ms, 0659ms total)
TF83C 010:427 JLINK_ReadReg(R10)  returns 0x00000000 (0000ms, 0659ms total)
TF83C 010:427 JLINK_ReadReg(R11)  returns 0x00000000 (0000ms, 0659ms total)
TF83C 010:427 JLINK_ReadReg(R12)  returns 0x00000000 (0000ms, 0659ms total)
TF83C 010:427 JLINK_ReadReg(R13 (SP))  returns 0x20006338 (0000ms, 0659ms total)
TF83C 010:427 JLINK_ReadReg(R14)  returns 0x080008E9 (0000ms, 0659ms total)
TF83C 010:427 JLINK_ReadReg(R15 (PC))  returns 0x0800C590 (0000ms, 0659ms total)
TF83C 010:427 JLINK_ReadReg(XPSR)  returns 0x61000000 (0000ms, 0659ms total)
TF83C 010:427 JLINK_ReadReg(MSP)  returns 0x20006338 (0000ms, 0659ms total)
TF83C 010:427 JLINK_ReadReg(PSP)  returns 0x00000000 (0000ms, 0659ms total)
TF83C 010:427 JLINK_ReadReg(CFBP)  returns 0x00000000 (0000ms, 0659ms total)
TF83C 010:427 JLINK_ReadReg(FPSCR)  returns 0x00000000 (0003ms, 0662ms total)
TF83C 010:430 JLINK_ReadReg(FPS0)  returns 0x00000000 (0000ms, 0662ms total)
TF83C 010:430 JLINK_ReadReg(FPS1)  returns 0x00000000 (0000ms, 0662ms total)
TF83C 010:430 JLINK_ReadReg(FPS2)  returns 0x00000000 (0000ms, 0662ms total)
TF83C 010:430 JLINK_ReadReg(FPS3)  returns 0x00000000 (0000ms, 0662ms total)
TF83C 010:430 JLINK_ReadReg(FPS4)  returns 0x00000000 (0000ms, 0662ms total)
TF83C 010:430 JLINK_ReadReg(FPS5)  returns 0x00000000 (0000ms, 0662ms total)
TF83C 010:430 JLINK_ReadReg(FPS6)  returns 0x00000000 (0000ms, 0662ms total)
TF83C 010:430 JLINK_ReadReg(FPS7)  returns 0x00000000 (0000ms, 0662ms total)
TF83C 010:430 JLINK_ReadReg(FPS8)  returns 0x00000000 (0000ms, 0662ms total)
TF83C 010:430 JLINK_ReadReg(FPS9)  returns 0x00000000 (0000ms, 0662ms total)
TF83C 010:430 JLINK_ReadReg(FPS10)  returns 0x00000000 (0000ms, 0662ms total)
TF83C 010:430 JLINK_ReadReg(FPS11)  returns 0x00000000 (0000ms, 0662ms total)
TF83C 010:430 JLINK_ReadReg(FPS12)  returns 0x00000000 (0000ms, 0662ms total)
TF83C 010:430 JLINK_ReadReg(FPS13)  returns 0x00000000 (0000ms, 0662ms total)
TF83C 010:430 JLINK_ReadReg(FPS14)  returns 0x00000000 (0000ms, 0662ms total)
TF83C 010:430 JLINK_ReadReg(FPS15)  returns 0x00000000 (0000ms, 0662ms total)
TF83C 010:430 JLINK_ReadReg(FPS16)  returns 0x00000000 (0000ms, 0662ms total)
TF83C 010:430 JLINK_ReadReg(FPS17)  returns 0x00000000 (0000ms, 0662ms total)
TF83C 010:430 JLINK_ReadReg(FPS18)  returns 0x00000000 (0000ms, 0662ms total)
TF83C 010:430 JLINK_ReadReg(FPS19)  returns 0x00000000 (0000ms, 0662ms total)
TF83C 010:430 JLINK_ReadReg(FPS20)  returns 0x00000000 (0000ms, 0662ms total)
TF83C 010:430 JLINK_ReadReg(FPS21)  returns 0x00000000 (0000ms, 0662ms total)
TF83C 010:430 JLINK_ReadReg(FPS22)  returns 0x00000000 (0000ms, 0662ms total)
TF83C 010:430 JLINK_ReadReg(FPS23)  returns 0x00000000 (0000ms, 0662ms total)
TF83C 010:430 JLINK_ReadReg(FPS24)  returns 0x00000000 (0000ms, 0662ms total)
TF83C 010:430 JLINK_ReadReg(FPS25)  returns 0x00000000 (0000ms, 0662ms total)
TF83C 010:430 JLINK_ReadReg(FPS26)  returns 0x00000000 (0000ms, 0662ms total)
TF83C 010:430 JLINK_ReadReg(FPS27)  returns 0x00000000 (0001ms, 0663ms total)
TF83C 010:431 JLINK_ReadReg(FPS28)  returns 0x00000000 (0000ms, 0663ms total)
TF83C 010:431 JLINK_ReadReg(FPS29)  returns 0x00000000 (0000ms, 0663ms total)
TF83C 010:431 JLINK_ReadReg(FPS30)  returns 0x00000000 (0000ms, 0663ms total)
TF83C 010:431 JLINK_ReadReg(FPS31)  returns 0x00000000 (0000ms, 0663ms total)
TF83C 010:431 JLINK_ReadMem (0x20005A74, 0x0004 Bytes, ...) -- CPU_ReadMem(4 bytes @ 0x20005A74) - Data: 00 00 00 00  returns 0x00 (0000ms, 0663ms total)
T3AA8 010:438 JLINK_ReadMem (0x20005B14, 0x0004 Bytes, ...) -- CPU_ReadMem(4 bytes @ 0x20005B14) - Data: 00 00 00 00  returns 0x00 (0001ms, 0664ms total)
T3AA8 010:439 JLINK_ReadMem (0x00000015, 0x0004 Bytes, ...) -- CPU_ReadMem(4 bytes @ 0x00000015) - Data: 0B 00 08 05  returns 0x00 (0000ms, 0664ms total)
T3AA8 010:439 JLINK_ReadMem (0x20005B10, 0x0004 Bytes, ...) -- CPU_ReadMem(4 bytes @ 0x20005B10) - Data: 00 00 00 00  returns 0x00 (0001ms, 0665ms total)
T3AA8 010:440 JLINK_ReadMem (0x00000005, 0x0002 Bytes, ...) -- CPU_ReadMem(2 bytes @ 0x00000005) - Data: 01 00  returns 0x00 (0000ms, 0665ms total)
T3AA8 010:440 JLINK_ReadMem (0x2000191C, 0x0002 Bytes, ...) -- CPU_ReadMem(2 bytes @ 0x2000191C) - Data: 00 00  returns 0x00 (0000ms, 0665ms total)
T3AA8 010:442 JLINK_ReadMem (0x20000B36, 0x0002 Bytes, ...) -- CPU_ReadMem(2 bytes @ 0x20000B36) - Data: 00 00  returns 0x00 (0000ms, 0665ms total)
T3AA8 010:443 JLINK_ReadMem (0x2000191A, 0x0002 Bytes, ...) -- CPU_ReadMem(2 bytes @ 0x2000191A) - Data: 00 00  returns 0x00 (0000ms, 0665ms total)
T3AA8 010:443 JLINK_ReadMem (0x0800C490, 0x003C Bytes, ...) -- CPU_ReadMem(128 bytes @ 0x0800C480) -- Updating DA cache (128 bytes @ 0x0800C480) -- Read from DA cache (60 bytes @ 0x0800C490) - Data: 03 FB 00 F2 B5 F8 72 30 D2 0C 81 F8 2E 20 03 FB ...  returns 0x00 (0001ms, 0666ms total)
T3AA8 010:444 JLINK_ReadMem (0x0800C4CC, 0x003C Bytes, ...) -- CPU_ReadMem(64 bytes @ 0x0800C500) -- Updating DA cache (64 bytes @ 0x0800C500) -- Read from DA cache (60 bytes @ 0x0800C4CC) - Data: B5 F8 6A 30 92 0C 81 F8 31 20 03 FB 00 F2 B5 F8 ...  returns 0x00 (0000ms, 0666ms total)
T3AA8 010:444 JLINK_ReadMem (0x0800C508, 0x003C Bytes, ...) -- CPU_ReadMem(64 bytes @ 0x0800C540) -- Updating DA cache (64 bytes @ 0x0800C540) -- Read from DA cache (60 bytes @ 0x0800C508) - Data: 80 6B 9F ED 1E 1A 00 EE 10 0A 61 68 B4 EE 41 0A ...  returns 0x00 (0001ms, 0667ms total)
T3AA8 010:445 JLINK_ReadMem (0x0800C544, 0x003C Bytes, ...) -- Read from DA cache (60 bytes @ 0x0800C544) - Data: 00 00 01 78 01 31 01 70 B0 BD 40 F2 DA 00 C2 F2 ...  returns 0x00 (0000ms, 0667ms total)
T3AA8 010:445 JLINK_ReadMem (0x0800C580, 0x003C Bytes, ...) -- CPU_ReadMem(64 bytes @ 0x0800C580) -- Updating DA cache (64 bytes @ 0x0800C580) -- Read from DA cache (60 bytes @ 0x0800C580) - Data: B0 BD 00 BF 00 00 EC 41 00 00 E4 41 00 00 DC 41 ...  returns 0x00 (0001ms, 0668ms total)
T3AA8 013:098 JLINK_Close() -- CPU_WriteMem(4 bytes @ 0xE0002008) -- CPU_WriteMem(4 bytes @ 0xE000200C) >0x42 TIF> >0x28 TIF> >0x0D TIF> >0x21 TIF> (0004ms, 0672ms total)
T3AA8 013:098  (0004ms, 0672ms total)
T3AA8 013:098 Closed (0005ms, 0673ms total)
